T7564 000:270.182   SEGGER J-Link V7.22b Log File
T7564 000:270.305   DLL Compiled: Jun 17 2021 17:22:49
T7564 000:270.311   Logging started @ 2025-04-25 12:23
T7564 000:270.346 - 270.357ms
T7564 000:270.399 JLINK_SetWarnOutHandler(...)
T7564 000:270.423 - 0.027ms
T7564 000:270.433 JLINK_OpenEx(...)
T7564 000:523.311   Firmware: J-Link ARM-OB STM32 compiled Aug 22 2012 19:52:04
T7564 000:523.590   Firmware: J-Link ARM-OB STM32 compiled Aug 22 2012 19:52:04
T7564 000:525.318   Hardware: V7.00
T7564 000:525.330   S/N: 20090928
T7564 000:525.335   OEM: SEGGER
T7564 000:525.341   Feature(s): RDI,FlashDL,FlashBP,JFlash,GDBFull
T7564 000:526.241   TELNET listener socket opened on port 19021
T7564 000:526.351   WEBSRV Starting webserver
T7564 000:526.414   WEBSRV Failed to put socket into listener state (port 19080)
T7564 000:526.424   WEBSRV Failed to put socket into listener state (port 19081)
T7564 000:526.549   WEBSRV Webserver running on local port 19082
T7564 000:526.561 - 256.130ms returns "O.K."
T7564 000:526.578 JLINK_GetEmuCaps()
T7564 000:526.582 - 0.006ms returns 0x88EA5833
T7564 000:526.601 JLINK_TIF_GetAvailable(...)
T7564 000:526.772 - 0.179ms
T7564 000:526.785 JLINK_SetErrorOutHandler(...)
T7564 000:526.789 - 0.006ms
T7564 000:526.811 JLINK_ExecCommand("ProjectFile = "C:\Users\HLlll\Desktop\RMUC-2025-M55-Infantry\MDK-ARM\JLinkSettings.ini"", ...). 
T7564 000:533.119   Ref file found at: C:\Users\HLlll\AppData\Local\Keil_v5\ARM\Segger\JLinkDevices.ref
T7564 000:533.187   REF file references invalid XML file: C:\Program Files\SEGGER\JLink\JLinkDevices.xml
T7564 000:533.215   XML file found at: C:\Users\HLlll\AppData\Local\Keil_v5\ARM\Segger\JLinkDevices.xml
T7564 000:533.603   C:\Users\HLlll\AppData\Local\Keil_v5\ARM\Segger\JLinkDevices.xml evaluated successfully.
T7564 000:547.288 - 20.487ms returns 0x00
T7564 000:547.333 JLINK_ExecCommand("Device = STM32F407IG", ...). 
T7564 000:547.737   Device "STM32F407IG" selected.
T7564 000:547.949 - 0.614ms returns 0x00
T7564 000:547.963 JLINK_GetHardwareVersion()
T7564 000:547.967 - 0.005ms returns 70000
T7564 000:547.972 JLINK_GetDLLVersion()
T7564 000:547.975 - 0.005ms returns 72202
T7564 000:547.980 JLINK_GetOEMString(...)
T7564 000:547.985 JLINK_GetFirmwareString(...)
T7564 000:547.991 - 0.008ms
T7564 000:548.010 JLINK_GetDLLVersion()
T7564 000:548.014 - 0.005ms returns 72202
T7564 000:548.018 JLINK_GetCompileDateTime()
T7564 000:548.022 - 0.005ms
T7564 000:548.029 JLINK_GetFirmwareString(...)
T7564 000:548.033 - 0.005ms
T7564 000:548.040 JLINK_GetHardwareVersion()
T7564 000:548.043 - 0.005ms returns 70000
T7564 000:548.051 JLINK_GetSN()
T7564 000:548.055 - 0.005ms returns 20090928
T7564 000:548.061 JLINK_GetOEMString(...)
T7564 000:548.071 JLINK_TIF_Select(JLINKARM_TIF_SWD)
T7564 000:548.526 - 0.461ms returns 0x00
T7564 000:548.538 JLINK_HasError()
T7564 000:548.555 JLINK_SetSpeed(5000)
T7564 000:548.616 - 0.063ms
T7564 000:548.623 JLINK_GetId()
T7564 000:548.765   InitTarget() start
T7564 000:548.771    J-Link Script File: Executing InitTarget()
T7564 000:559.209   InitTarget() end
T7564 000:559.832   Found SW-DP with ID 0x2BA01477
T7564 000:562.451   Old FW that does not support reading DPIDR via DAP jobs
T7564 000:565.251   DPv0 detected
T7564 000:565.274   Scanning AP map to find all available APs
T7564 000:567.284   AP[1]: Stopped AP scan as end of AP map has been reached
T7564 000:567.302   AP[0]: AHB-AP (IDR: 0x24770011)
T7564 000:567.310   Iterating through AP map to find AHB-AP to use
T7564 000:570.537   AP[0]: Core found
T7564 000:570.553   AP[0]: AHB-AP ROM base: 0xE00FF000
T7564 000:572.035   CPUID register: 0x410FC241. Implementer code: 0x41 (ARM)
T7564 000:572.055   Found Cortex-M4 r0p1, Little endian.
T7564 000:672.747   -- Max. mem block: 0x00002C18
T7564 000:673.020   CPU_ReadMem(4 bytes @ 0xE000EDF0)
T7564 000:673.447   CPU_ReadMem(4 bytes @ 0xE0002000)
T7564 000:673.929   FPUnit: 6 code (BP) slots and 2 literal slots
T7564 000:673.939   CPU_ReadMem(4 bytes @ 0xE000EDFC)
T7564 000:674.317   CPU_WriteMem(4 bytes @ 0xE000EDFC)
T7564 000:674.765   CPU_ReadMem(4 bytes @ 0xE0001000)
T7564 000:675.258   CPU_WriteMem(4 bytes @ 0xE0001000)
T7564 000:675.667   CPU_ReadMem(4 bytes @ 0xE000ED88)
T7564 000:676.097   CPU_WriteMem(4 bytes @ 0xE000ED88)
T7564 000:676.617   CPU_ReadMem(4 bytes @ 0xE000ED88)
T7564 000:677.047   CPU_WriteMem(4 bytes @ 0xE000ED88)
T7564 000:677.545   CoreSight components:
T7564 000:677.554   ROMTbl[0] @ E00FF000
T7564 000:677.559   CPU_ReadMem(64 bytes @ 0xE00FF000)
T7564 000:678.648   CPU_ReadMem(32 bytes @ 0xE000EFE0)
T7564 000:679.412   ROMTbl[0][0]: E000E000, CID: B105E00D, PID: 000BB00C SCS-M7
T7564 000:679.433   CPU_ReadMem(32 bytes @ 0xE0001FE0)
T7564 000:680.143   ROMTbl[0][1]: E0001000, CID: B105E00D, PID: 003BB002 DWT
T7564 000:680.158   CPU_ReadMem(32 bytes @ 0xE0002FE0)
T7564 000:680.958   ROMTbl[0][2]: E0002000, CID: B105E00D, PID: 002BB003 FPB
T7564 000:680.967   CPU_ReadMem(32 bytes @ 0xE0000FE0)
T7564 000:681.644   ROMTbl[0][3]: E0000000, CID: B105E00D, PID: 003BB001 ITM
T7564 000:681.658   CPU_ReadMem(32 bytes @ 0xE0040FE0)
T7564 000:682.357   ROMTbl[0][4]: E0040000, CID: B105900D, PID: 000BB9A1 TPIU
T7564 000:682.365   CPU_ReadMem(32 bytes @ 0xE0041FE0)
T7564 000:683.023   ROMTbl[0][5]: E0041000, CID: B105900D, PID: 000BB925 ETM
T7564 000:683.488 - 134.872ms returns 0x2BA01477
T7564 000:683.536 JLINK_GetDLLVersion()
T7564 000:683.540 - 0.006ms returns 72202
T7564 000:683.545 JLINK_CORE_GetFound()
T7564 000:683.549 - 0.005ms returns 0xE0000FF
T7564 000:683.554 JLINK_GetDebugInfo(0x100 = JLINKARM_ROM_TABLE_ADDR_INDEX)
T7564 000:683.559   Value=0xE00FF000
T7564 000:683.564 - 0.012ms returns 0
T7564 000:683.578 JLINK_GetDebugInfo(0x100 = JLINKARM_ROM_TABLE_ADDR_INDEX)
T7564 000:683.582   Value=0xE00FF000
T7564 000:683.587 - 0.011ms returns 0
T7564 000:683.592 JLINK_GetDebugInfo(0x101 = JLINKARM_DEBUG_INFO_ETM_ADDR_INDEX)
T7564 000:683.596   Value=0xE0041000
T7564 000:683.601 - 0.011ms returns 0
T7564 000:683.616 JLINK_ReadMemEx(0xE0041FD0, 0x20 Bytes, Flags = 0x02000004)
T7564 000:683.640   CPU_ReadMem(32 bytes @ 0xE0041FD0)
T7564 000:684.429   Data:  04 00 00 00 00 00 00 00 00 00 00 00 00 00 00 00 ...
T7564 000:684.442 - 0.828ms returns 32 (0x20)
T7564 000:684.449 JLINK_GetDebugInfo(0x102 = JLINKARM_DEBUG_INFO_MTB_ADDR_INDEX)
T7564 000:684.453   Value=0x00000000
T7564 000:684.459 - 0.013ms returns 0
T7564 000:684.466 JLINK_GetDebugInfo(0x103 = JLINKARM_DEBUG_INFO_TPIU_ADDR_INDEX)
T7564 000:684.470   Value=0xE0040000
T7564 000:684.475 - 0.010ms returns 0
T7564 000:684.479 JLINK_GetDebugInfo(0x104 = JLINKARM_DEBUG_INFO_ITM_ADDR_INDEX)
T7564 000:684.483   Value=0xE0000000
T7564 000:684.488 - 0.010ms returns 0
T7564 000:684.493 JLINK_GetDebugInfo(0x105 = JLINKARM_DEBUG_INFO_DWT_ADDR_INDEX)
T7564 000:684.497   Value=0xE0001000
T7564 000:684.502 - 0.010ms returns 0
T7564 000:684.507 JLINK_GetDebugInfo(0x106 = JLINKARM_DEBUG_INFO_FPB_ADDR_INDEX)
T7564 000:684.511   Value=0xE0002000
T7564 000:684.516 - 0.011ms returns 0
T7564 000:684.521 JLINK_GetDebugInfo(0x107 = JLINKARM_DEBUG_INFO_NVIC_ADDR_INDEX)
T7564 000:684.525   Value=0xE000E000
T7564 000:684.530 - 0.010ms returns 0
T7564 000:684.534 JLINK_GetDebugInfo(0x10C = JLINKARM_DEBUG_INFO_DBG_ADDR_INDEX)
T7564 000:684.538   Value=0xE000EDF0
T7564 000:684.543 - 0.011ms returns 0
T7564 000:684.548 JLINK_GetDebugInfo(0x01 = Unknown)
T7564 000:684.552   Value=0x00000001
T7564 000:684.557 - 0.011ms returns 0
T7564 000:684.562 JLINK_ReadMemU32(0xE000ED00, 0x1 Items)
T7564 000:684.571   CPU_ReadMem(4 bytes @ 0xE000ED00)
T7564 000:684.941   Data:  41 C2 0F 41
T7564 000:684.948   Debug reg: CPUID
T7564 000:684.953 - 0.392ms returns 1 (0x1)
T7564 000:684.958 JLINK_GetDebugInfo(0x10F = JLINKARM_DEBUG_INFO_HAS_CORTEX_M_SECURITY_EXT_INDEX)
T7564 000:684.962   Value=0x00000000
T7564 000:684.967 - 0.010ms returns 0
T7564 000:684.972 JLINK_HasError()
T7564 000:684.977 JLINK_SetResetType(JLINKARM_CM3_RESET_TYPE_NORMAL)
T7564 000:684.981 - 0.005ms returns JLINKARM_CM3_RESET_TYPE_NORMAL
T7564 000:684.989 JLINK_Reset()
T7564 000:685.002   CPU is running
T7564 000:685.008   CPU_WriteMem(4 bytes @ 0xE000EDF0)
T7564 000:685.452   CPU is running
T7564 000:685.486   CPU_WriteMem(4 bytes @ 0xE000EDFC)
T7564 000:686.045   Reset: Halt core after reset via DEMCR.VC_CORERESET.
T7564 000:686.372   Reset: Reset device via AIRCR.SYSRESETREQ.
T7564 000:686.378   CPU is running
T7564 000:686.383   CPU_WriteMem(4 bytes @ 0xE000ED0C)
T7564 000:739.828   CPU_ReadMem(4 bytes @ 0xE000EDF0)
T7564 000:740.379   CPU_ReadMem(4 bytes @ 0xE000EDF0)
T7564 000:740.785   CPU is running
T7564 000:740.799   CPU_WriteMem(4 bytes @ 0xE000EDF0)
T7564 000:741.263   CPU is running
T7564 000:741.274   CPU_WriteMem(4 bytes @ 0xE000EDFC)
T7564 000:747.409   CPU_ReadMem(4 bytes @ 0xE000EDF0)
T7564 000:751.169   CPU_WriteMem(4 bytes @ 0xE0002000)
T7564 000:751.625   CPU_ReadMem(4 bytes @ 0xE000EDFC)
T7564 000:752.091   CPU_ReadMem(4 bytes @ 0xE0001000)
T7564 000:752.578 - 67.602ms
T7564 000:752.611 JLINK_HasError()
T7564 000:752.665 JLINK_ReadReg(R15 (PC))
T7564 000:752.672 - 0.008ms returns 0x08000314
T7564 000:752.677 JLINK_ReadReg(XPSR)
T7564 000:752.681 - 0.005ms returns 0x01000000
T7564 000:752.686 JLINK_Halt()
T7564 000:752.689 - 0.005ms returns 0x00
T7564 000:752.694 JLINK_ReadMemU32(0xE000EDF0, 0x1 Items)
T7564 000:752.701   CPU_ReadMem(4 bytes @ 0xE000EDF0)
T7564 000:753.142   Data:  03 00 03 00
T7564 000:753.149   Debug reg: DHCSR
T7564 000:753.154 - 0.461ms returns 1 (0x1)
T7564 000:753.160 JLINK_WriteU32_64(0xE000EDF0, 0xA05F0003)
T7564 000:753.166   Debug reg: DHCSR
T7564 000:753.389   CPU_WriteMem(4 bytes @ 0xE000EDF0)
T7564 000:753.921 - 0.774ms returns 0 (0x00000000)
T7564 000:753.951 JLINK_WriteU32_64(0xE000EDFC, 0x01000000)
T7564 000:753.956   Debug reg: DEMCR
T7564 000:753.962   CPU_WriteMem(4 bytes @ 0xE000EDFC)
T7564 000:754.417 - 0.467ms returns 0 (0x00000000)
T7564 000:754.478 JLINK_GetHWStatus(...)
T7564 000:754.575 - 0.099ms returns 0
T7564 000:754.589 JLINK_GetNumBPUnits(Type = 0xFFFFFF00)
T7564 000:754.593 - 0.005ms returns 0x06
T7564 000:754.598 JLINK_GetNumBPUnits(Type = 0xF0)
T7564 000:754.601 - 0.005ms returns 0x2000
T7564 000:754.606 JLINK_GetNumWPUnits()
T7564 000:754.609 - 0.005ms returns 4
T7564 000:754.621 JLINK_GetSpeed()
T7564 000:754.625 - 0.005ms returns 4000
T7564 000:754.634 JLINK_ReadMemU32(0xE000E004, 0x1 Items)
T7564 000:754.639   CPU_ReadMem(4 bytes @ 0xE000E004)
T7564 000:755.098   Data:  02 00 00 00
T7564 000:755.125 - 0.493ms returns 1 (0x1)
T7564 000:755.131 JLINK_ReadMemU32(0xE000E004, 0x1 Items)
T7564 000:755.135   CPU_ReadMem(4 bytes @ 0xE000E004)
T7564 000:755.569   Data:  02 00 00 00
T7564 000:755.600 - 0.471ms returns 1 (0x1)
T7564 000:755.605 JLINK_WriteMemEx(0xE0001000, 0x0000001C Bytes, Flags = 0x02000004)
T7564 000:755.609   Data:  01 00 00 00 00 00 00 00 00 00 00 00 00 00 00 00 ...
T7564 000:755.617   CPU_WriteMem(28 bytes @ 0xE0001000)
T7564 000:756.382 - 0.784ms returns 0x1C
T7564 000:756.396 JLINK_HasError()
T7564 000:756.401 JLINK_ReadReg(R15 (PC))
T7564 000:756.407 - 0.007ms returns 0x08000314
T7564 000:756.412 JLINK_ReadReg(XPSR)
T7564 000:756.416 - 0.005ms returns 0x01000000
T7564 000:761.028 JLINK_ReadMemEx(0xE0001004, 0x4 Bytes, Flags = 0x02000000)
T7564 000:761.047   Data:  00 00 00 00
T7564 000:761.054   Debug reg: DWT_CYCCNT
T7564 000:761.058 - 0.032ms returns 4 (0x4)
T7564 000:859.837 JLINK_HasError()
T7564 000:859.859 JLINK_SetResetType(JLINKARM_CM3_RESET_TYPE_NORMAL)
T7564 000:859.864 - 0.006ms returns JLINKARM_CM3_RESET_TYPE_NORMAL
T7564 000:859.869 JLINK_Reset()
T7564 000:859.883   CPU_WriteMem(4 bytes @ 0xE000EDF0)
T7564 000:860.429   CPU_WriteMem(4 bytes @ 0xE000EDFC)
T7564 000:861.004   Reset: Halt core after reset via DEMCR.VC_CORERESET.
T7564 000:861.383   Reset: Reset device via AIRCR.SYSRESETREQ.
T7564 000:861.390   CPU_WriteMem(4 bytes @ 0xE000ED0C)
T7564 000:914.881   CPU_ReadMem(4 bytes @ 0xE000EDF0)
T7564 000:915.383   CPU_ReadMem(4 bytes @ 0xE000EDF0)
T7564 000:915.898   CPU_WriteMem(4 bytes @ 0xE000EDF0)
T7564 000:916.412   CPU_WriteMem(4 bytes @ 0xE000EDFC)
T7564 000:922.848   CPU_ReadMem(4 bytes @ 0xE000EDF0)
T7564 000:926.530   CPU_WriteMem(4 bytes @ 0xE0002000)
T7564 000:927.160   CPU_ReadMem(4 bytes @ 0xE000EDFC)
T7564 000:927.601   CPU_ReadMem(4 bytes @ 0xE0001000)
T7564 000:928.115 - 68.259ms
T7564 000:928.221 JLINK_HasError()
T7564 000:928.228 JLINK_ReadReg(R15 (PC))
T7564 000:928.236 - 0.009ms returns 0x08000314
T7564 000:928.241 JLINK_ReadReg(XPSR)
T7564 000:928.245 - 0.006ms returns 0x01000000
T7564 000:928.836 JLINK_ReadMemEx(0x08000314, 0x3C Bytes, Flags = 0x02000000)
T7564 000:928.858   CPU_ReadMem(128 bytes @ 0x08000300)
T7564 000:930.518    -- Updating C cache (128 bytes @ 0x08000300)
T7564 000:930.531    -- Read from C cache (60 bytes @ 0x08000314)
T7564 000:930.538   Data:  09 48 80 47 09 48 00 47 FE E7 FE E7 FE E7 FE E7 ...
T7564 000:930.543 - 1.709ms returns 60 (0x3C)
T7564 000:930.551 JLINK_ReadMemEx(0x08000314, 0x2 Bytes, Flags = 0x02000000)
T7564 000:930.557    -- Read from C cache (2 bytes @ 0x08000314)
T7564 000:930.562   Data:  09 48
T7564 000:930.568 - 0.018ms returns 2 (0x2)
T7564 000:930.634 JLINK_ReadMemEx(0x08000316, 0x2 Bytes, Flags = 0x02000000)
T7564 000:930.638    -- Read from C cache (2 bytes @ 0x08000316)
T7564 000:930.644   Data:  80 47
T7564 000:930.649 - 0.017ms returns 2 (0x2)
T7564 000:930.663 JLINK_ReadMemEx(0x08000316, 0x2 Bytes, Flags = 0x02000000)
T7564 000:930.667    -- Read from C cache (2 bytes @ 0x08000316)
T7564 000:930.672   Data:  80 47
T7564 000:930.678 - 0.017ms returns 2 (0x2)
T7564 000:930.682 JLINK_ReadMemEx(0x08000318, 0x3C Bytes, Flags = 0x02000000)
T7564 000:930.687    -- Read from C cache (60 bytes @ 0x08000318)
T7564 000:930.692   Data:  09 48 00 47 FE E7 FE E7 FE E7 FE E7 FE E7 FE E7 ...
T7564 000:930.698 - 0.017ms returns 60 (0x3C)
T7564 000:930.702 JLINK_ReadMemEx(0x08000318, 0x2 Bytes, Flags = 0x02000000)
T7564 000:930.706    -- Read from C cache (2 bytes @ 0x08000318)
T7564 000:930.712   Data:  09 48
T7564 000:930.717 - 0.016ms returns 2 (0x2)
T7564 003:057.756 JLINK_ReadMemEx(0x08000318, 0x3C Bytes, Flags = 0x02000000)
T7564 003:057.779    -- Read from C cache (60 bytes @ 0x08000318)
T7564 003:057.786   Data:  09 48 00 47 FE E7 FE E7 FE E7 FE E7 FE E7 FE E7 ...
T7564 003:057.792 - 0.038ms returns 60 (0x3C)
T7564 003:057.798 JLINK_ReadMemEx(0x08000318, 0x2 Bytes, Flags = 0x02000000)
T7564 003:057.802    -- Read from C cache (2 bytes @ 0x08000318)
T7564 003:057.808   Data:  09 48
T7564 003:057.814 - 0.018ms returns 2 (0x2)
T7564 003:057.819 JLINK_ReadMemEx(0x0800031A, 0x2 Bytes, Flags = 0x02000000)
T7564 003:057.824    -- Read from C cache (2 bytes @ 0x0800031A)
T7564 003:057.830   Data:  00 47
T7564 003:057.835 - 0.017ms returns 2 (0x2)
T7564 003:443.672 JLINK_HasError()
T7564 003:443.695 JLINK_ReadReg(R0)
T7564 003:444.237 - 0.564ms returns 0x00000000
T7564 003:444.267 JLINK_ReadReg(R1)
T7564 003:444.272 - 0.006ms returns 0x00000000
T7564 003:444.276 JLINK_ReadReg(R2)
T7564 003:444.280 - 0.005ms returns 0x00000000
T7564 003:444.285 JLINK_ReadReg(R3)
T7564 003:444.288 - 0.005ms returns 0x00000000
T7564 003:444.293 JLINK_ReadReg(R4)
T7564 003:444.296 - 0.005ms returns 0x00000000
T7564 003:444.302 JLINK_ReadReg(R5)
T7564 003:444.305 - 0.005ms returns 0x00000000
T7564 003:444.310 JLINK_ReadReg(R6)
T7564 003:444.313 - 0.005ms returns 0x00000000
T7564 003:444.318 JLINK_ReadReg(R7)
T7564 003:444.321 - 0.005ms returns 0x00000000
T7564 003:444.326 JLINK_ReadReg(R8)
T7564 003:444.346 - 0.021ms returns 0x00000000
T7564 003:444.350 JLINK_ReadReg(R9)
T7564 003:444.354 - 0.005ms returns 0x00000000
T7564 003:444.358 JLINK_ReadReg(R10)
T7564 003:444.362 - 0.005ms returns 0x00000000
T7564 003:444.367 JLINK_ReadReg(R11)
T7564 003:444.370 - 0.005ms returns 0x00000000
T7564 003:444.375 JLINK_ReadReg(R12)
T7564 003:444.378 - 0.005ms returns 0x00000000
T7564 003:444.383 JLINK_ReadReg(R13 (SP))
T7564 003:444.387 - 0.005ms returns 0x2000DCE8
T7564 003:444.391 JLINK_ReadReg(R14)
T7564 003:444.433 - 0.043ms returns 0xFFFFFFFF
T7564 003:444.437 JLINK_ReadReg(R15 (PC))
T7564 003:444.441 - 0.005ms returns 0x08000314
T7564 003:444.445 JLINK_ReadReg(XPSR)
T7564 003:444.449 - 0.005ms returns 0x01000000
T7564 003:444.454 JLINK_ReadReg(MSP)
T7564 003:444.457 - 0.005ms returns 0x2000DCE8
T7564 003:444.462 JLINK_ReadReg(PSP)
T7564 003:444.466 - 0.005ms returns 0x00000000
T7564 003:444.470 JLINK_ReadReg(CFBP)
T7564 003:444.474 - 0.005ms returns 0x00000000
T7564 003:444.478 JLINK_ReadReg(FPSCR)
T7564 003:449.374 - 4.907ms returns 0x00000000
T7564 003:449.391 JLINK_ReadReg(FPS0)
T7564 003:449.396 - 0.007ms returns 0x00000000
T7564 003:449.401 JLINK_ReadReg(FPS1)
T7564 003:449.405 - 0.005ms returns 0x00000000
T7564 003:449.410 JLINK_ReadReg(FPS2)
T7564 003:449.413 - 0.005ms returns 0x00000000
T7564 003:449.418 JLINK_ReadReg(FPS3)
T7564 003:449.421 - 0.005ms returns 0x00000000
T7564 003:449.426 JLINK_ReadReg(FPS4)
T7564 003:449.430 - 0.005ms returns 0x00000000
T7564 003:449.434 JLINK_ReadReg(FPS5)
T7564 003:449.438 - 0.005ms returns 0x00000000
T7564 003:449.442 JLINK_ReadReg(FPS6)
T7564 003:449.446 - 0.005ms returns 0x00000000
T7564 003:449.450 JLINK_ReadReg(FPS7)
T7564 003:449.454 - 0.005ms returns 0x00000000
T7564 003:449.458 JLINK_ReadReg(FPS8)
T7564 003:449.462 - 0.005ms returns 0x00000000
T7564 003:449.466 JLINK_ReadReg(FPS9)
T7564 003:449.470 - 0.005ms returns 0x00000000
T7564 003:449.475 JLINK_ReadReg(FPS10)
T7564 003:449.478 - 0.005ms returns 0x00000000
T7564 003:449.483 JLINK_ReadReg(FPS11)
T7564 003:449.486 - 0.005ms returns 0x00000000
T7564 003:449.491 JLINK_ReadReg(FPS12)
T7564 003:449.495 - 0.005ms returns 0x00000000
T7564 003:449.499 JLINK_ReadReg(FPS13)
T7564 003:449.503 - 0.005ms returns 0x00000000
T7564 003:449.507 JLINK_ReadReg(FPS14)
T7564 003:449.511 - 0.005ms returns 0x00000000
T7564 003:449.516 JLINK_ReadReg(FPS15)
T7564 003:449.519 - 0.005ms returns 0x00000000
T7564 003:449.524 JLINK_ReadReg(FPS16)
T7564 003:449.527 - 0.005ms returns 0x00000000
T7564 003:449.532 JLINK_ReadReg(FPS17)
T7564 003:449.535 - 0.005ms returns 0x00000000
T7564 003:449.540 JLINK_ReadReg(FPS18)
T7564 003:449.543 - 0.005ms returns 0x00000000
T7564 003:449.548 JLINK_ReadReg(FPS19)
T7564 003:449.552 - 0.005ms returns 0x00000000
T7564 003:449.556 JLINK_ReadReg(FPS20)
T7564 003:449.562 - 0.007ms returns 0x00000000
T7564 003:449.566 JLINK_ReadReg(FPS21)
T7564 003:449.570 - 0.005ms returns 0x00000000
T7564 003:449.575 JLINK_ReadReg(FPS22)
T7564 003:449.579 - 0.005ms returns 0x00000000
T7564 003:449.583 JLINK_ReadReg(FPS23)
T7564 003:449.587 - 0.005ms returns 0x00000000
T7564 003:449.592 JLINK_ReadReg(FPS24)
T7564 003:449.596 - 0.005ms returns 0x00000000
T7564 003:449.600 JLINK_ReadReg(FPS25)
T7564 003:449.604 - 0.005ms returns 0x00000000
T7564 003:449.609 JLINK_ReadReg(FPS26)
T7564 003:449.612 - 0.005ms returns 0x00000000
T7564 003:449.617 JLINK_ReadReg(FPS27)
T7564 003:449.621 - 0.005ms returns 0x00000000
T7564 003:449.625 JLINK_ReadReg(FPS28)
T7564 003:449.629 - 0.005ms returns 0x00000000
T7564 003:449.634 JLINK_ReadReg(FPS29)
T7564 003:449.638 - 0.005ms returns 0x00000000
T7564 003:449.642 JLINK_ReadReg(FPS30)
T7564 003:449.646 - 0.005ms returns 0x00000000
T7564 003:449.653 JLINK_ReadReg(FPS31)
T7564 003:449.656 - 0.005ms returns 0x00000000
T7564 003:461.656 JLINK_ReadMemEx(0x200002B8, 0x8 Bytes, Flags = 0x02000000)
T7564 003:461.690   CPU_ReadMem(64 bytes @ 0x20000280)
T7564 003:462.909    -- Updating C cache (64 bytes @ 0x20000280)
T7564 003:462.927    -- Read from C cache (8 bytes @ 0x200002B8)
T7564 003:462.934   Data:  00 00 00 00 00 00 00 00
T7564 003:462.940 - 1.287ms returns 8 (0x8)
T7564 003:466.607 JLINK_ReadMemEx(0x2000026C, 0x8 Bytes, Flags = 0x02000000)
T7564 003:466.632   CPU_ReadMem(64 bytes @ 0x20000240)
T7564 003:467.780    -- Updating C cache (64 bytes @ 0x20000240)
T7564 003:467.799    -- Read from C cache (8 bytes @ 0x2000026C)
T7564 003:467.806   Data:  00 00 00 00 00 00 00 00
T7564 003:467.812 - 1.212ms returns 8 (0x8)
T7564 003:471.514 JLINK_ReadMemEx(0x200002B0, 0x8 Bytes, Flags = 0x02000000)
T7564 003:471.533    -- Read from C cache (8 bytes @ 0x200002B0)
T7564 003:471.540   Data:  00 00 00 00 00 00 00 00
T7564 003:471.546 - 0.034ms returns 8 (0x8)
T7564 003:475.471 JLINK_ReadMemEx(0x20002E2C, 0x4 Bytes, Flags = 0x02000000)
T7564 003:475.503   CPU_ReadMem(64 bytes @ 0x20002E00)
T7564 003:476.670    -- Updating C cache (64 bytes @ 0x20002E00)
T7564 003:476.685    -- Read from C cache (4 bytes @ 0x20002E2C)
T7564 003:476.691   Data:  00 00 00 00
T7564 003:476.697 - 1.228ms returns 4 (0x4)
T7564 003:476.765 JLINK_ReadMemEx(0x20002E2C, 0x4 Bytes, Flags = 0x02000000)
T7564 003:476.772    -- Read from C cache (4 bytes @ 0x20002E2C)
T7564 003:476.778   Data:  00 00 00 00
T7564 003:476.784 - 0.021ms returns 4 (0x4)
T7564 003:476.807 JLINK_ReadMemEx(0x20002E2C, 0x4 Bytes, Flags = 0x02000000)
T7564 003:476.812    -- Read from C cache (4 bytes @ 0x20002E2C)
T7564 003:476.818   Data:  00 00 00 00
T7564 003:476.824 - 0.018ms returns 4 (0x4)
T7564 003:501.213 JLINK_ReadMemEx(0x20002E30, 0x4 Bytes, Flags = 0x02000000)
T7564 003:501.238    -- Read from C cache (4 bytes @ 0x20002E30)
T7564 003:501.244   Data:  00 00 00 00
T7564 003:501.249 - 0.038ms returns 4 (0x4)
T7564 003:501.279 JLINK_ReadMemEx(0x20002E30, 0x4 Bytes, Flags = 0x02000000)
T7564 003:501.284    -- Read from C cache (4 bytes @ 0x20002E30)
T7564 003:501.289   Data:  00 00 00 00
T7564 003:501.294 - 0.016ms returns 4 (0x4)
T7564 003:501.309 JLINK_ReadMemEx(0x20002E30, 0x4 Bytes, Flags = 0x02000000)
T7564 003:501.314    -- Read from C cache (4 bytes @ 0x20002E30)
T7564 003:501.319   Data:  00 00 00 00
T7564 003:501.324 - 0.016ms returns 4 (0x4)
T7564 003:505.866 JLINK_ReadMemEx(0x20002E34, 0x4 Bytes, Flags = 0x02000000)
T7564 003:505.891    -- Read from C cache (4 bytes @ 0x20002E34)
T7564 003:505.897   Data:  00 00 00 00
T7564 003:505.902 - 0.038ms returns 4 (0x4)
T7564 003:505.933 JLINK_ReadMemEx(0x20002E34, 0x4 Bytes, Flags = 0x02000000)
T7564 003:505.938    -- Read from C cache (4 bytes @ 0x20002E34)
T7564 003:505.944   Data:  00 00 00 00
T7564 003:505.949 - 0.017ms returns 4 (0x4)
T7564 003:505.968 JLINK_ReadMemEx(0x20002E34, 0x4 Bytes, Flags = 0x02000000)
T7564 003:505.972    -- Read from C cache (4 bytes @ 0x20002E34)
T7564 003:505.978   Data:  00 00 00 00
T7564 003:505.983 - 0.016ms returns 4 (0x4)
T4E10 003:727.502 JLINK_ReadMemEx(0x08000314, 0x2 Bytes, Flags = 0x02000000)
T4E10 003:727.523    -- Read from C cache (2 bytes @ 0x08000314)
T4E10 003:727.530   Data:  09 48
T4E10 003:727.536 - 0.036ms returns 2 (0x2)
T4E10 003:727.542 JLINK_HasError()
T4E10 003:727.550 JLINK_SetBPEx(Addr = 0x08011BD4, Type = 0xFFFFFFF2)
T4E10 003:727.559 - 0.011ms returns 0x00000001
T4E10 003:727.564 JLINK_HasError()
T4E10 003:727.569 JLINK_HasError()
T4E10 003:727.574 JLINK_Go()
T4E10 003:727.601   CPU_WriteMem(4 bytes @ 0xE0002000)
T4E10 003:728.291   CPU_ReadMem(4 bytes @ 0xE0001000)
T4E10 003:728.908   CPU_WriteMem(4 bytes @ 0xE0002008)
T4E10 003:728.928   CPU_WriteMem(4 bytes @ 0xE000200C)
T4E10 003:728.934   CPU_WriteMem(4 bytes @ 0xE0002010)
T4E10 003:728.940   CPU_WriteMem(4 bytes @ 0xE0002014)
T4E10 003:728.945   CPU_WriteMem(4 bytes @ 0xE0002018)
T4E10 003:728.951   CPU_WriteMem(4 bytes @ 0xE000201C)
T4E10 003:731.367   CPU_WriteMem(4 bytes @ 0xE0001004)
T4E10 003:732.456 - 4.886ms
T4E10 003:832.725 JLINK_HasError()
T4E10 003:832.756 JLINK_IsHalted()
T4E10 003:835.976 - 3.231ms returns TRUE
T4E10 003:835.993 JLINK_HasError()
T4E10 003:835.999 JLINK_Halt()
T4E10 003:836.002 - 0.005ms returns 0x00
T4E10 003:836.007 JLINK_IsHalted()
T4E10 003:836.011 - 0.005ms returns TRUE
T4E10 003:836.016 JLINK_IsHalted()
T4E10 003:836.020 - 0.005ms returns TRUE
T4E10 003:836.024 JLINK_IsHalted()
T4E10 003:836.028 - 0.005ms returns TRUE
T4E10 003:836.033 JLINK_HasError()
T4E10 003:836.038 JLINK_ReadReg(R15 (PC))
T4E10 003:836.045 - 0.008ms returns 0x08001B4E
T4E10 003:836.049 JLINK_ReadReg(XPSR)
T4E10 003:836.053 - 0.009ms returns 0x21000000
T4E10 003:836.067 JLINK_HasError()
T4E10 003:836.072 JLINK_ClrBPEx(BPHandle = 0x00000001)
T4E10 003:836.076 - 0.006ms returns 0x00
T4E10 003:836.081 JLINK_HasError()
T4E10 003:836.086 JLINK_HasError()
T4E10 003:836.090 JLINK_ReadMemU32(0xE000ED30, 0x1 Items)
T4E10 003:836.099   CPU_ReadMem(4 bytes @ 0xE000ED30)
T4E10 003:836.554   Data:  03 00 00 00
T4E10 003:836.576 - 0.496ms returns 1 (0x1)
T4E10 003:836.600 JLINK_ReadMemU32(0xE0001028, 0x1 Items)
T4E10 003:836.609   CPU_ReadMem(4 bytes @ 0xE0001028)
T4E10 003:837.067   Data:  00 00 00 00
T4E10 003:837.087   Debug reg: DWT_FUNC[0]
T4E10 003:837.092 - 0.493ms returns 1 (0x1)
T4E10 003:837.098 JLINK_ReadMemU32(0xE0001038, 0x1 Items)
T4E10 003:837.104   CPU_ReadMem(4 bytes @ 0xE0001038)
T4E10 003:837.589   Data:  00 02 00 00
T4E10 003:837.616   Debug reg: DWT_FUNC[1]
T4E10 003:837.621 - 0.525ms returns 1 (0x1)
T4E10 003:837.628 JLINK_ReadMemU32(0xE0001048, 0x1 Items)
T4E10 003:837.635   CPU_ReadMem(4 bytes @ 0xE0001048)
T4E10 003:838.093   Data:  00 00 00 00
T4E10 003:838.100   Debug reg: DWT_FUNC[2]
T4E10 003:838.106 - 0.479ms returns 1 (0x1)
T4E10 003:838.111 JLINK_ReadMemU32(0xE0001058, 0x1 Items)
T4E10 003:838.116   CPU_ReadMem(4 bytes @ 0xE0001058)
T4E10 003:838.569   Data:  00 00 00 00
T4E10 003:838.577   Debug reg: DWT_FUNC[3]
T4E10 003:838.582 - 0.472ms returns 1 (0x1)
T4E10 003:838.627 JLINK_HasError()
T4E10 003:838.632 JLINK_ReadReg(R0)
T4E10 003:838.638 - 0.007ms returns 0x00000001
T4E10 003:838.642 JLINK_ReadReg(R1)
T4E10 003:838.646 - 0.005ms returns 0x2000DCA0
T4E10 003:838.651 JLINK_ReadReg(R2)
T4E10 003:838.654 - 0.005ms returns 0x80000000
T4E10 003:838.659 JLINK_ReadReg(R3)
T4E10 003:838.662 - 0.005ms returns 0x08012C4E
T4E10 003:838.667 JLINK_ReadReg(R4)
T4E10 003:838.670 - 0.005ms returns 0x00000000
T4E10 003:838.675 JLINK_ReadReg(R5)
T4E10 003:838.678 - 0.005ms returns 0x00000001
T4E10 003:838.683 JLINK_ReadReg(R6)
T4E10 003:838.686 - 0.005ms returns 0x20000170
T4E10 003:838.691 JLINK_ReadReg(R7)
T4E10 003:838.694 - 0.005ms returns 0x08012C4D
T4E10 003:838.699 JLINK_ReadReg(R8)
T4E10 003:838.702 - 0.005ms returns 0x00000000
T4E10 003:838.707 JLINK_ReadReg(R9)
T4E10 003:838.710 - 0.005ms returns 0x00000000
T4E10 003:838.715 JLINK_ReadReg(R10)
T4E10 003:838.718 - 0.005ms returns 0x080130BC
T4E10 003:838.723 JLINK_ReadReg(R11)
T4E10 003:838.726 - 0.005ms returns 0x00000000
T4E10 003:838.731 JLINK_ReadReg(R12)
T4E10 003:838.735 - 0.005ms returns 0x00000000
T4E10 003:838.739 JLINK_ReadReg(R13 (SP))
T4E10 003:838.743 - 0.005ms returns 0x2000DCA0
T4E10 003:838.748 JLINK_ReadReg(R14)
T4E10 003:838.752 - 0.005ms returns 0x08001B49
T4E10 003:838.756 JLINK_ReadReg(R15 (PC))
T4E10 003:838.760 - 0.005ms returns 0x08001B4E
T4E10 003:838.764 JLINK_ReadReg(XPSR)
T4E10 003:838.768 - 0.005ms returns 0x21000000
T4E10 003:838.772 JLINK_ReadReg(MSP)
T4E10 003:838.776 - 0.005ms returns 0x2000DCA0
T4E10 003:838.780 JLINK_ReadReg(PSP)
T4E10 003:838.784 - 0.005ms returns 0x00000000
T4E10 003:838.788 JLINK_ReadReg(CFBP)
T4E10 003:838.792 - 0.005ms returns 0x04000000
T4E10 003:838.796 JLINK_ReadReg(FPSCR)
T4E10 003:843.584 - 4.801ms returns 0x03000000
T4E10 003:843.609 JLINK_ReadReg(FPS0)
T4E10 003:843.615 - 0.008ms returns 0x00000000
T4E10 003:843.647 JLINK_ReadReg(FPS1)
T4E10 003:843.652 - 0.006ms returns 0x00000000
T4E10 003:843.657 JLINK_ReadReg(FPS2)
T4E10 003:843.661 - 0.005ms returns 0x00000000
T4E10 003:843.665 JLINK_ReadReg(FPS3)
T4E10 003:843.669 - 0.005ms returns 0x00000000
T4E10 003:843.674 JLINK_ReadReg(FPS4)
T4E10 003:843.678 - 0.006ms returns 0x00000000
T4E10 003:843.683 JLINK_ReadReg(FPS5)
T4E10 003:843.687 - 0.005ms returns 0x00000000
T4E10 003:843.691 JLINK_ReadReg(FPS6)
T4E10 003:843.695 - 0.005ms returns 0x00000000
T4E10 003:843.700 JLINK_ReadReg(FPS7)
T4E10 003:843.703 - 0.005ms returns 0x00000000
T4E10 003:843.708 JLINK_ReadReg(FPS8)
T4E10 003:843.712 - 0.005ms returns 0x00000000
T4E10 003:843.716 JLINK_ReadReg(FPS9)
T4E10 003:843.720 - 0.009ms returns 0x00000000
T4E10 003:843.730 JLINK_ReadReg(FPS10)
T4E10 003:843.734 - 0.005ms returns 0x00000000
T4E10 003:843.739 JLINK_ReadReg(FPS11)
T4E10 003:843.743 - 0.005ms returns 0x00000000
T4E10 003:843.747 JLINK_ReadReg(FPS12)
T4E10 003:843.751 - 0.005ms returns 0x00000000
T4E10 003:843.756 JLINK_ReadReg(FPS13)
T4E10 003:843.759 - 0.005ms returns 0x00000000
T4E10 003:843.764 JLINK_ReadReg(FPS14)
T4E10 003:843.768 - 0.005ms returns 0x00000000
T4E10 003:843.772 JLINK_ReadReg(FPS15)
T4E10 003:843.776 - 0.005ms returns 0x00000000
T4E10 003:843.781 JLINK_ReadReg(FPS16)
T4E10 003:843.785 - 0.005ms returns 0x00000000
T4E10 003:843.789 JLINK_ReadReg(FPS17)
T4E10 003:843.793 - 0.005ms returns 0x00000000
T4E10 003:843.798 JLINK_ReadReg(FPS18)
T4E10 003:843.801 - 0.005ms returns 0x00000000
T4E10 003:843.806 JLINK_ReadReg(FPS19)
T4E10 003:843.810 - 0.005ms returns 0x00000000
T4E10 003:843.814 JLINK_ReadReg(FPS20)
T4E10 003:843.818 - 0.005ms returns 0x00000000
T4E10 003:843.823 JLINK_ReadReg(FPS21)
T4E10 003:843.827 - 0.005ms returns 0x00000000
T4E10 003:843.831 JLINK_ReadReg(FPS22)
T4E10 003:843.835 - 0.005ms returns 0x00000000
T4E10 003:843.840 JLINK_ReadReg(FPS23)
T4E10 003:843.844 - 0.005ms returns 0x00000000
T4E10 003:843.848 JLINK_ReadReg(FPS24)
T4E10 003:843.852 - 0.005ms returns 0x00000000
T4E10 003:843.857 JLINK_ReadReg(FPS25)
T4E10 003:843.861 - 0.005ms returns 0x00000000
T4E10 003:843.865 JLINK_ReadReg(FPS26)
T4E10 003:843.869 - 0.005ms returns 0x00000000
T4E10 003:843.873 JLINK_ReadReg(FPS27)
T4E10 003:843.877 - 0.005ms returns 0x00000000
T4E10 003:843.882 JLINK_ReadReg(FPS28)
T4E10 003:843.886 - 0.005ms returns 0x00000000
T4E10 003:843.890 JLINK_ReadReg(FPS29)
T4E10 003:843.894 - 0.005ms returns 0x00000000
T4E10 003:843.899 JLINK_ReadReg(FPS30)
T4E10 003:843.902 - 0.005ms returns 0x00000000
T4E10 003:843.907 JLINK_ReadReg(FPS31)
T4E10 003:843.911 - 0.005ms returns 0x00000000
T7564 003:844.258 JLINK_ReadMemEx(0x2000DCAC, 0x4 Bytes, Flags = 0x02000000)
T7564 003:844.278   CPU_ReadMem(64 bytes @ 0x2000DC80)
T7564 003:845.344    -- Updating C cache (64 bytes @ 0x2000DC80)
T7564 003:845.352    -- Read from C cache (4 bytes @ 0x2000DCAC)
T7564 003:845.358   Data:  E9 19 00 08
T7564 003:845.364 - 1.108ms returns 4 (0x4)
T7564 003:845.374 JLINK_ReadMemEx(0x2000DCAC, 0x4 Bytes, Flags = 0x02000000)
T7564 003:845.379    -- Read from C cache (4 bytes @ 0x2000DCAC)
T7564 003:845.385   Data:  E9 19 00 08
T7564 003:845.390 - 0.018ms returns 4 (0x4)
T7564 003:845.397 JLINK_ReadMemEx(0x2000DCC4, 0x4 Bytes, Flags = 0x02000000)
T7564 003:845.402   CPU_ReadMem(64 bytes @ 0x2000DCC0)
T7564 003:846.455    -- Updating C cache (64 bytes @ 0x2000DCC0)
T7564 003:846.462    -- Read from C cache (4 bytes @ 0x2000DCC4)
T7564 003:846.468   Data:  0D 0F 00 08
T7564 003:846.474 - 1.079ms returns 4 (0x4)
T7564 003:846.481 JLINK_ReadMemEx(0x2000DCB0, 0x4 Bytes, Flags = 0x02000000)
T7564 003:846.486    -- Read from C cache (4 bytes @ 0x2000DCB0)
T7564 003:846.492   Data:  30 01 00 20
T7564 003:846.497 - 0.018ms returns 4 (0x4)
T7564 003:846.502 JLINK_ReadMemEx(0x2000DCB4, 0x4 Bytes, Flags = 0x02000000)
T7564 003:846.506    -- Read from C cache (4 bytes @ 0x2000DCB4)
T7564 003:846.512   Data:  10 01 00 20
T7564 003:846.517 - 0.017ms returns 4 (0x4)
T7564 003:846.522 JLINK_ReadMemEx(0x2000DCB8, 0x4 Bytes, Flags = 0x02000000)
T7564 003:846.526    -- Read from C cache (4 bytes @ 0x2000DCB8)
T7564 003:846.532   Data:  00 00 00 00
T7564 003:846.538 - 0.017ms returns 4 (0x4)
T7564 003:846.543 JLINK_ReadMemEx(0x2000DCBC, 0x4 Bytes, Flags = 0x02000000)
T7564 003:846.547    -- Read from C cache (4 bytes @ 0x2000DCBC)
T7564 003:846.553   Data:  00 00 00 00
T7564 003:846.558 - 0.017ms returns 4 (0x4)
T7564 003:846.563 JLINK_ReadMemEx(0x2000DCC0, 0x4 Bytes, Flags = 0x02000000)
T7564 003:846.567    -- Read from C cache (4 bytes @ 0x2000DCC0)
T7564 003:846.573   Data:  00 00 00 00
T7564 003:846.578 - 0.017ms returns 4 (0x4)
T7564 003:846.586 JLINK_ReadMemEx(0x2000DCC4, 0x4 Bytes, Flags = 0x02000000)
T7564 003:846.623    -- Read from C cache (4 bytes @ 0x2000DCC4)
T7564 003:846.630   Data:  0D 0F 00 08
T7564 003:846.635 - 0.050ms returns 4 (0x4)
T7564 003:846.641 JLINK_ReadMemEx(0x2000DCCC, 0x4 Bytes, Flags = 0x02000000)
T7564 003:846.645    -- Read from C cache (4 bytes @ 0x2000DCCC)
T7564 003:846.650   Data:  E7 02 00 08
T7564 003:846.655 - 0.016ms returns 4 (0x4)
T7564 003:846.664 JLINK_ReadMemEx(0x2000DCC8, 0x4 Bytes, Flags = 0x02000000)
T7564 003:846.669    -- Read from C cache (4 bytes @ 0x2000DCC8)
T7564 003:846.676   Data:  30 01 00 20
T7564 003:846.682 - 0.018ms returns 4 (0x4)
T7564 003:846.686 JLINK_ReadMemEx(0x2000DCCC, 0x4 Bytes, Flags = 0x02000000)
T7564 003:846.691    -- Read from C cache (4 bytes @ 0x2000DCCC)
T7564 003:846.696   Data:  E7 02 00 08
T7564 003:846.701 - 0.016ms returns 4 (0x4)
T7564 003:849.067 JLINK_ReadMemEx(0x200002B8, 0x8 Bytes, Flags = 0x02000000)
T7564 003:849.084   CPU_ReadMem(64 bytes @ 0x20000280)
T7564 003:850.098    -- Updating C cache (64 bytes @ 0x20000280)
T7564 003:850.110    -- Read from C cache (8 bytes @ 0x200002B8)
T7564 003:850.116   Data:  00 00 00 00 00 00 00 00
T7564 003:850.122 - 1.056ms returns 8 (0x8)
T7564 003:850.152 JLINK_ReadMemEx(0x2000026C, 0x8 Bytes, Flags = 0x02000000)
T7564 003:850.160   CPU_ReadMem(64 bytes @ 0x20000240)
T7564 003:851.162    -- Updating C cache (64 bytes @ 0x20000240)
T7564 003:851.172    -- Read from C cache (8 bytes @ 0x2000026C)
T7564 003:851.178   Data:  00 00 00 00 00 00 00 00
T7564 003:851.183 - 1.033ms returns 8 (0x8)
T7564 003:851.207 JLINK_ReadMemEx(0x200002B0, 0x8 Bytes, Flags = 0x02000000)
T7564 003:851.214    -- Read from C cache (8 bytes @ 0x200002B0)
T7564 003:851.220   Data:  00 00 00 00 00 00 00 00
T7564 003:851.225 - 0.020ms returns 8 (0x8)
T7564 003:851.232 JLINK_ReadMemEx(0x20002E2C, 0x4 Bytes, Flags = 0x02000000)
T7564 003:851.238   CPU_ReadMem(64 bytes @ 0x20002E00)
T7564 003:852.265    -- Updating C cache (64 bytes @ 0x20002E00)
T7564 003:852.276    -- Read from C cache (4 bytes @ 0x20002E2C)
T7564 003:852.282   Data:  00 00 00 00
T7564 003:852.288 - 1.057ms returns 4 (0x4)
T7564 003:852.331 JLINK_ReadMemEx(0x20002E30, 0x4 Bytes, Flags = 0x02000000)
T7564 003:852.338    -- Read from C cache (4 bytes @ 0x20002E30)
T7564 003:852.344   Data:  00 00 00 00
T7564 003:852.349 - 0.020ms returns 4 (0x4)
T7564 003:852.356 JLINK_ReadMemEx(0x20002E34, 0x4 Bytes, Flags = 0x02000000)
T7564 003:852.361    -- Read from C cache (4 bytes @ 0x20002E34)
T7564 003:852.367   Data:  00 00 00 00
T7564 003:852.372 - 0.017ms returns 4 (0x4)
T7564 003:856.441 JLINK_ReadMemEx(0x08001B4E, 0x2 Bytes, Flags = 0x02000000)
T7564 003:856.457   CPU_ReadMem(64 bytes @ 0x08001B40)
T7564 003:857.470    -- Updating C cache (64 bytes @ 0x08001B40)
T7564 003:857.481    -- Read from C cache (2 bytes @ 0x08001B4E)
T7564 003:857.487   Data:  AB BE
T7564 003:857.493 - 1.054ms returns 2 (0x2)
T7564 003:857.500 JLINK_ReadMemEx(0x08001B50, 0x3C Bytes, Flags = 0x02000000)
T7564 003:857.507   CPU_ReadMem(64 bytes @ 0x08001B80)
T7564 003:858.495    -- Updating C cache (64 bytes @ 0x08001B80)
T7564 003:858.507    -- Read from C cache (60 bytes @ 0x08001B50)
T7564 003:858.513   Data:  0E BD 08 B5 69 46 00 90 02 20 AB BE 08 BD 1F B5 ...
T7564 003:858.518 - 1.020ms returns 60 (0x3C)
T7564 003:858.525 JLINK_ReadMemEx(0x08001B50, 0x2 Bytes, Flags = 0x02000000)
T7564 003:858.530    -- Read from C cache (2 bytes @ 0x08001B50)
T7564 003:858.536   Data:  0E BD
T7564 003:858.541 - 0.018ms returns 2 (0x2)
T7564 003:858.553 JLINK_ReadMemEx(0x08001B50, 0x3C Bytes, Flags = 0x02000000)
T7564 003:858.558    -- Read from C cache (60 bytes @ 0x08001B50)
T7564 003:858.563   Data:  0E BD 08 B5 69 46 00 90 02 20 AB BE 08 BD 1F B5 ...
T7564 003:858.569 - 0.017ms returns 60 (0x3C)
T7564 003:858.573 JLINK_ReadMemEx(0x08001B50, 0x2 Bytes, Flags = 0x02000000)
T7564 003:858.577    -- Read from C cache (2 bytes @ 0x08001B50)
T7564 003:858.583   Data:  0E BD
T7564 003:858.589 - 0.017ms returns 2 (0x2)
T7564 003:858.598 JLINK_ReadMemEx(0x08001B52, 0x2 Bytes, Flags = 0x02000000)
T7564 003:858.604    -- Read from C cache (2 bytes @ 0x08001B52)
T7564 003:858.611   Data:  08 B5
T7564 003:858.617 - 0.021ms returns 2 (0x2)
T7564 003:858.623 JLINK_ReadMemEx(0x08001B52, 0x2 Bytes, Flags = 0x02000000)
T7564 003:858.628    -- Read from C cache (2 bytes @ 0x08001B52)
T7564 003:858.633   Data:  08 B5
T7564 003:858.638 - 0.016ms returns 2 (0x2)
T7564 003:858.643 JLINK_ReadMemEx(0x08001B54, 0x3C Bytes, Flags = 0x02000000)
T7564 003:858.647    -- Read from C cache (60 bytes @ 0x08001B54)
T7564 003:858.653   Data:  69 46 00 90 02 20 AB BE 08 BD 1F B5 8D E8 07 00 ...
T7564 003:858.658 - 0.017ms returns 60 (0x3C)
T7564 003:858.663 JLINK_ReadMemEx(0x08001B54, 0x2 Bytes, Flags = 0x02000000)
T7564 003:858.667    -- Read from C cache (2 bytes @ 0x08001B54)
T7564 003:858.673   Data:  69 46
T7564 003:858.678 - 0.016ms returns 2 (0x2)
T7564 003:858.684 JLINK_ReadMemEx(0x08001B54, 0x3C Bytes, Flags = 0x02000000)
T7564 003:858.688    -- Read from C cache (60 bytes @ 0x08001B54)
T7564 003:858.694   Data:  69 46 00 90 02 20 AB BE 08 BD 1F B5 8D E8 07 00 ...
T7564 003:858.699 - 0.017ms returns 60 (0x3C)
T7564 003:858.704 JLINK_ReadMemEx(0x08001B54, 0x2 Bytes, Flags = 0x02000000)
T7564 003:858.708    -- Read from C cache (2 bytes @ 0x08001B54)
T7564 003:858.714   Data:  69 46
T7564 003:858.719 - 0.016ms returns 2 (0x2)
T7564 003:858.724 JLINK_ReadMemEx(0x08001B56, 0x2 Bytes, Flags = 0x02000000)
T7564 003:858.728    -- Read from C cache (2 bytes @ 0x08001B56)
T7564 003:858.733   Data:  00 90
T7564 003:858.738 - 0.016ms returns 2 (0x2)
T7564 003:858.744 JLINK_ReadMemEx(0x08001B56, 0x2 Bytes, Flags = 0x02000000)
T7564 003:858.748    -- Read from C cache (2 bytes @ 0x08001B56)
T7564 003:858.754   Data:  00 90
T7564 003:858.759 - 0.016ms returns 2 (0x2)
T7564 003:858.764 JLINK_ReadMemEx(0x08001B58, 0x3C Bytes, Flags = 0x02000000)
T7564 003:858.768    -- Read from C cache (60 bytes @ 0x08001B58)
T7564 003:858.773   Data:  02 20 AB BE 08 BD 1F B5 8D E8 07 00 69 46 05 20 ...
T7564 003:858.779 - 0.016ms returns 60 (0x3C)
T7564 003:858.783 JLINK_ReadMemEx(0x08001B58, 0x2 Bytes, Flags = 0x02000000)
T7564 003:858.787    -- Read from C cache (2 bytes @ 0x08001B58)
T7564 003:858.793   Data:  02 20
T7564 003:858.798 - 0.016ms returns 2 (0x2)
T7564 003:858.804 JLINK_ReadMemEx(0x08001B58, 0x3C Bytes, Flags = 0x02000000)
T7564 003:858.808    -- Read from C cache (60 bytes @ 0x08001B58)
T7564 003:858.814   Data:  02 20 AB BE 08 BD 1F B5 8D E8 07 00 69 46 05 20 ...
T7564 003:858.819 - 0.016ms returns 60 (0x3C)
T7564 003:858.824 JLINK_ReadMemEx(0x08001B58, 0x2 Bytes, Flags = 0x02000000)
T7564 003:858.828    -- Read from C cache (2 bytes @ 0x08001B58)
T7564 003:858.833   Data:  02 20
T7564 003:858.838 - 0.016ms returns 2 (0x2)
T7564 003:858.843 JLINK_ReadMemEx(0x08001B5A, 0x2 Bytes, Flags = 0x02000000)
T7564 003:858.847    -- Read from C cache (2 bytes @ 0x08001B5A)
T7564 003:858.852   Data:  AB BE
T7564 003:858.858 - 0.016ms returns 2 (0x2)
T7564 003:858.864 JLINK_ReadMemEx(0x08001B5A, 0x2 Bytes, Flags = 0x02000000)
T7564 003:858.868    -- Read from C cache (2 bytes @ 0x08001B5A)
T7564 003:858.873   Data:  AB BE
T7564 003:858.878 - 0.016ms returns 2 (0x2)
T7564 003:858.883 JLINK_ReadMemEx(0x08001B5C, 0x3C Bytes, Flags = 0x02000000)
T7564 003:858.887    -- Read from C cache (60 bytes @ 0x08001B5C)
T7564 003:858.893   Data:  08 BD 1F B5 8D E8 07 00 69 46 05 20 AB BE 04 B0 ...
T7564 003:858.898 - 0.017ms returns 60 (0x3C)
T7564 003:858.903 JLINK_ReadMemEx(0x08001B5C, 0x2 Bytes, Flags = 0x02000000)
T7564 003:858.907    -- Read from C cache (2 bytes @ 0x08001B5C)
T7564 003:858.912   Data:  08 BD
T7564 003:858.918 - 0.016ms returns 2 (0x2)
T4E10 005:131.950 JLINK_ReadMemEx(0x08001B4E, 0x2 Bytes, Flags = 0x02000000)
T4E10 005:131.973    -- Read from C cache (2 bytes @ 0x08001B4E)
T4E10 005:131.980   Data:  AB BE
T4E10 005:131.986 - 0.037ms returns 2 (0x2)
T4E10 005:131.992 JLINK_HasError()
T4E10 005:132.000 JLINK_WriteReg(R15 (PC), 0x08001B50)
T4E10 005:132.016 - 0.017ms returns 0
T4E10 005:132.021 JLINK_HasError()
T4E10 005:132.026 JLINK_HasError()
T4E10 005:132.031 JLINK_Go()
T4E10 005:132.502   CPU_ReadMem(4 bytes @ 0xE0001000)
T4E10 005:132.969   CPU_WriteMem(4 bytes @ 0xE0002008)
T4E10 005:134.735 - 2.714ms
T4E10 005:234.878 JLINK_HasError()
T4E10 005:234.900 JLINK_IsHalted()
T4E10 005:238.126 - 3.236ms returns TRUE
T4E10 005:238.141 JLINK_HasError()
T4E10 005:238.147 JLINK_Halt()
T4E10 005:238.151 - 0.005ms returns 0x00
T4E10 005:238.155 JLINK_IsHalted()
T4E10 005:238.159 - 0.005ms returns TRUE
T4E10 005:238.164 JLINK_IsHalted()
T4E10 005:238.167 - 0.005ms returns TRUE
T4E10 005:238.172 JLINK_IsHalted()
T4E10 005:238.175 - 0.005ms returns TRUE
T4E10 005:238.180 JLINK_HasError()
T4E10 005:238.185 JLINK_ReadReg(R15 (PC))
T4E10 005:238.191 - 0.007ms returns 0x08001B4E
T4E10 005:238.195 JLINK_ReadReg(XPSR)
T4E10 005:238.199 - 0.005ms returns 0x21000000
T4E10 005:238.206 JLINK_HasError()
T4E10 005:238.211 JLINK_HasError()
T4E10 005:238.216 JLINK_ReadMemU32(0xE000ED30, 0x1 Items)
T4E10 005:238.225   CPU_ReadMem(4 bytes @ 0xE000ED30)
T4E10 005:238.676   Data:  03 00 00 00
T4E10 005:238.710 - 0.502ms returns 1 (0x1)
T4E10 005:238.721 JLINK_ReadMemU32(0xE0001028, 0x1 Items)
T4E10 005:238.726   CPU_ReadMem(4 bytes @ 0xE0001028)
T4E10 005:239.120   Data:  00 00 00 00
T4E10 005:239.127   Debug reg: DWT_FUNC[0]
T4E10 005:239.132 - 0.412ms returns 1 (0x1)
T4E10 005:239.137 JLINK_ReadMemU32(0xE0001038, 0x1 Items)
T4E10 005:239.142   CPU_ReadMem(4 bytes @ 0xE0001038)
T4E10 005:239.552   Data:  00 02 00 00
T4E10 005:239.580   Debug reg: DWT_FUNC[1]
T4E10 005:239.585 - 0.449ms returns 1 (0x1)
T4E10 005:239.590 JLINK_ReadMemU32(0xE0001048, 0x1 Items)
T4E10 005:239.595   CPU_ReadMem(4 bytes @ 0xE0001048)
T4E10 005:240.028   Data:  00 00 00 00
T4E10 005:240.054   Debug reg: DWT_FUNC[2]
T4E10 005:240.060 - 0.471ms returns 1 (0x1)
T4E10 005:240.065 JLINK_ReadMemU32(0xE0001058, 0x1 Items)
T4E10 005:240.069   CPU_ReadMem(4 bytes @ 0xE0001058)
T4E10 005:240.505   Data:  00 00 00 00
T4E10 005:240.517   Debug reg: DWT_FUNC[3]
T4E10 005:240.523 - 0.459ms returns 1 (0x1)
T4E10 005:240.569 JLINK_HasError()
T4E10 005:240.575 JLINK_ReadReg(R0)
T4E10 005:240.582 - 0.008ms returns 0x00000001
T4E10 005:240.587 JLINK_ReadReg(R1)
T4E10 005:240.591 - 0.005ms returns 0x2000DCA0
T4E10 005:240.595 JLINK_ReadReg(R2)
T4E10 005:240.599 - 0.005ms returns 0x80000000
T4E10 005:240.604 JLINK_ReadReg(R3)
T4E10 005:240.608 - 0.005ms returns 0x08012C52
T4E10 005:240.612 JLINK_ReadReg(R4)
T4E10 005:240.616 - 0.005ms returns 0x00000004
T4E10 005:240.621 JLINK_ReadReg(R5)
T4E10 005:240.625 - 0.005ms returns 0x00000002
T4E10 005:240.629 JLINK_ReadReg(R6)
T4E10 005:240.633 - 0.005ms returns 0x200001C4
T4E10 005:240.638 JLINK_ReadReg(R7)
T4E10 005:240.642 - 0.005ms returns 0x08012C51
T4E10 005:240.646 JLINK_ReadReg(R8)
T4E10 005:240.650 - 0.005ms returns 0x00000000
T4E10 005:240.655 JLINK_ReadReg(R9)
T4E10 005:240.659 - 0.005ms returns 0x00000000
T4E10 005:240.663 JLINK_ReadReg(R10)
T4E10 005:240.667 - 0.005ms returns 0x080130BC
T4E10 005:240.672 JLINK_ReadReg(R11)
T4E10 005:240.675 - 0.005ms returns 0x00000000
T4E10 005:240.680 JLINK_ReadReg(R12)
T4E10 005:240.684 - 0.005ms returns 0x00000000
T4E10 005:240.688 JLINK_ReadReg(R13 (SP))
T4E10 005:240.693 - 0.006ms returns 0x2000DCA0
T4E10 005:240.697 JLINK_ReadReg(R14)
T4E10 005:240.701 - 0.005ms returns 0x08001B49
T4E10 005:240.706 JLINK_ReadReg(R15 (PC))
T4E10 005:240.709 - 0.005ms returns 0x08001B4E
T4E10 005:240.714 JLINK_ReadReg(XPSR)
T4E10 005:240.718 - 0.005ms returns 0x21000000
T4E10 005:240.722 JLINK_ReadReg(MSP)
T4E10 005:240.726 - 0.005ms returns 0x2000DCA0
T4E10 005:240.731 JLINK_ReadReg(PSP)
T4E10 005:240.735 - 0.005ms returns 0x00000000
T4E10 005:240.739 JLINK_ReadReg(CFBP)
T4E10 005:240.743 - 0.005ms returns 0x04000000
T4E10 005:240.748 JLINK_ReadReg(FPSCR)
T4E10 005:245.572 - 4.837ms returns 0x03000000
T4E10 005:245.591 JLINK_ReadReg(FPS0)
T4E10 005:245.605 - 0.016ms returns 0x00000000
T4E10 005:245.610 JLINK_ReadReg(FPS1)
T4E10 005:245.614 - 0.005ms returns 0x00000000
T4E10 005:245.622 JLINK_ReadReg(FPS2)
T4E10 005:245.625 - 0.005ms returns 0x00000000
T4E10 005:245.630 JLINK_ReadReg(FPS3)
T4E10 005:245.633 - 0.005ms returns 0x00000000
T4E10 005:245.638 JLINK_ReadReg(FPS4)
T4E10 005:245.642 - 0.005ms returns 0x00000000
T4E10 005:245.646 JLINK_ReadReg(FPS5)
T4E10 005:245.650 - 0.005ms returns 0x00000000
T4E10 005:245.654 JLINK_ReadReg(FPS6)
T4E10 005:245.658 - 0.005ms returns 0x00000000
T4E10 005:245.662 JLINK_ReadReg(FPS7)
T4E10 005:245.666 - 0.005ms returns 0x00000000
T4E10 005:245.670 JLINK_ReadReg(FPS8)
T4E10 005:245.674 - 0.005ms returns 0x00000000
T4E10 005:245.678 JLINK_ReadReg(FPS9)
T4E10 005:245.682 - 0.005ms returns 0x00000000
T4E10 005:245.686 JLINK_ReadReg(FPS10)
T4E10 005:245.690 - 0.005ms returns 0x00000000
T4E10 005:245.694 JLINK_ReadReg(FPS11)
T4E10 005:245.698 - 0.005ms returns 0x00000000
T4E10 005:245.703 JLINK_ReadReg(FPS12)
T4E10 005:245.706 - 0.005ms returns 0x00000000
T4E10 005:245.711 JLINK_ReadReg(FPS13)
T4E10 005:245.714 - 0.005ms returns 0x00000000
T4E10 005:245.719 JLINK_ReadReg(FPS14)
T4E10 005:245.723 - 0.005ms returns 0x00000000
T4E10 005:245.727 JLINK_ReadReg(FPS15)
T4E10 005:245.731 - 0.005ms returns 0x00000000
T4E10 005:245.735 JLINK_ReadReg(FPS16)
T4E10 005:245.739 - 0.005ms returns 0x00000000
T4E10 005:245.743 JLINK_ReadReg(FPS17)
T4E10 005:245.747 - 0.005ms returns 0x00000000
T4E10 005:245.751 JLINK_ReadReg(FPS18)
T4E10 005:245.755 - 0.005ms returns 0x00000000
T4E10 005:245.759 JLINK_ReadReg(FPS19)
T4E10 005:245.763 - 0.005ms returns 0x00000000
T4E10 005:245.767 JLINK_ReadReg(FPS20)
T4E10 005:245.771 - 0.005ms returns 0x00000000
T4E10 005:245.775 JLINK_ReadReg(FPS21)
T4E10 005:245.779 - 0.005ms returns 0x00000000
T4E10 005:245.783 JLINK_ReadReg(FPS22)
T4E10 005:245.787 - 0.005ms returns 0x00000000
T4E10 005:245.791 JLINK_ReadReg(FPS23)
T4E10 005:245.795 - 0.005ms returns 0x00000000
T4E10 005:245.799 JLINK_ReadReg(FPS24)
T4E10 005:245.803 - 0.005ms returns 0x00000000
T4E10 005:245.807 JLINK_ReadReg(FPS25)
T4E10 005:245.811 - 0.005ms returns 0x00000000
T4E10 005:245.815 JLINK_ReadReg(FPS26)
T4E10 005:245.819 - 0.005ms returns 0x00000000
T4E10 005:245.823 JLINK_ReadReg(FPS27)
T4E10 005:245.827 - 0.005ms returns 0x00000000
T4E10 005:245.831 JLINK_ReadReg(FPS28)
T4E10 005:245.835 - 0.005ms returns 0x00000000
T4E10 005:245.839 JLINK_ReadReg(FPS29)
T4E10 005:245.843 - 0.005ms returns 0x00000000
T4E10 005:245.847 JLINK_ReadReg(FPS30)
T4E10 005:245.851 - 0.005ms returns 0x00000000
T4E10 005:245.855 JLINK_ReadReg(FPS31)
T4E10 005:245.859 - 0.005ms returns 0x00000000
T7564 005:246.255 JLINK_ReadMemEx(0x2000DCAC, 0x4 Bytes, Flags = 0x02000000)
T7564 005:246.277   CPU_ReadMem(64 bytes @ 0x2000DC80)
T7564 005:247.259    -- Updating C cache (64 bytes @ 0x2000DC80)
T7564 005:247.268    -- Read from C cache (4 bytes @ 0x2000DCAC)
T7564 005:247.274   Data:  E9 19 00 08
T7564 005:247.280 - 1.027ms returns 4 (0x4)
T7564 005:247.290 JLINK_ReadMemEx(0x2000DCAC, 0x4 Bytes, Flags = 0x02000000)
T7564 005:247.295    -- Read from C cache (4 bytes @ 0x2000DCAC)
T7564 005:247.301   Data:  E9 19 00 08
T7564 005:247.307 - 0.018ms returns 4 (0x4)
T7564 005:247.313 JLINK_ReadMemEx(0x2000DCC4, 0x4 Bytes, Flags = 0x02000000)
T7564 005:247.319   CPU_ReadMem(64 bytes @ 0x2000DCC0)
T7564 005:248.315    -- Updating C cache (64 bytes @ 0x2000DCC0)
T7564 005:248.321    -- Read from C cache (4 bytes @ 0x2000DCC4)
T7564 005:248.326   Data:  25 0F 00 08
T7564 005:248.332 - 1.020ms returns 4 (0x4)
T7564 005:248.338 JLINK_ReadMemEx(0x2000DCB0, 0x4 Bytes, Flags = 0x02000000)
T7564 005:248.343    -- Read from C cache (4 bytes @ 0x2000DCB0)
T7564 005:248.348   Data:  30 01 00 20
T7564 005:248.353 - 0.017ms returns 4 (0x4)
T7564 005:248.358 JLINK_ReadMemEx(0x2000DCB4, 0x4 Bytes, Flags = 0x02000000)
T7564 005:248.363    -- Read from C cache (4 bytes @ 0x2000DCB4)
T7564 005:248.371   Data:  10 01 00 20
T7564 005:248.377 - 0.020ms returns 4 (0x4)
T7564 005:248.381 JLINK_ReadMemEx(0x2000DCB8, 0x4 Bytes, Flags = 0x02000000)
T7564 005:248.386    -- Read from C cache (4 bytes @ 0x2000DCB8)
T7564 005:248.391   Data:  00 00 00 00
T7564 005:248.396 - 0.016ms returns 4 (0x4)
T7564 005:248.401 JLINK_ReadMemEx(0x2000DCBC, 0x4 Bytes, Flags = 0x02000000)
T7564 005:248.405    -- Read from C cache (4 bytes @ 0x2000DCBC)
T7564 005:248.411   Data:  00 00 00 00
T7564 005:248.416 - 0.017ms returns 4 (0x4)
T7564 005:248.421 JLINK_ReadMemEx(0x2000DCC0, 0x4 Bytes, Flags = 0x02000000)
T7564 005:248.425    -- Read from C cache (4 bytes @ 0x2000DCC0)
T7564 005:248.431   Data:  00 00 00 00
T7564 005:248.436 - 0.016ms returns 4 (0x4)
